! MS46122B
! 1728301/71650013
! 6/21/2022 4:13:53 PM
! C:\USERS\MILLIWAVE\DESKTOP\XYSTAGE_PYTHON\DATA\IMAI\DATAFILE#1_3CM.S2P
! CHANNEL.1
! TR.MEASUREMENT
! CORRECTED.DATA
# GHZ S RI R 50.0
! FREQ.GHZ         S11RE         S11IM         S21RE         S21IM         S12RE         S12IM         S22RE         S22IM         
!; PortSelection: Port_12
   1.000000000     0.5104876   -0.0258211    -0.0014444    0.2684246    -0.0009410    0.2686961     0.5202303   -0.0769135 
   1.050000000     0.2639385   -0.1433941     0.1677844    0.2335761     0.1681851    0.2334064     0.2619612   -0.2260551 
   1.100000000     0.0732453   -0.1932911     0.2966613    0.1143220     0.2962418    0.1146339     0.0059061   -0.1661986 
   1.150000000    -0.0701958   -0.0281916     0.3107481   -0.0711201     0.3107331   -0.0708580    -0.0886365   -0.0354908 
   1.200000000    -0.1030554    0.1483682     0.2124260   -0.2056909     0.2124500   -0.2062368    -0.0950744    0.1198397 
   1.250000000    -0.0063516    0.2340365     0.0959955   -0.2519757     0.0958660   -0.2519874    -0.0286388    0.1979915 
   1.300000000     0.0728045    0.2652207    -0.0643415   -0.2644161    -0.0637296   -0.2645289     0.0422934    0.2037454 
   1.350000000     0.1701506    0.2622312    -0.1463402   -0.1787868    -0.1460347   -0.1790994     0.0995126    0.2382640 
   1.400000000     0.2321746    0.2064033    -0.1961029   -0.1074571    -0.1960071   -0.1072848     0.2202607    0.2210720 
   1.450000000     0.2861240    0.1371962    -0.2140092   -0.0161850    -0.2137355   -0.0167669     0.2812008    0.1052708 
   1.500000000     0.3085511    0.0670906    -0.1841056    0.0934382    -0.1842851    0.0933687     0.2764030    0.0410455 
   1.550000000     0.3138216   -0.0110463    -0.1005522    0.1460166    -0.1009173    0.1456918     0.2654704   -0.0343424 
   1.600000000     0.2658782   -0.0939479    -0.0179691    0.1511435    -0.0182869    0.1514329     0.2485776   -0.1043859 
   1.650000000     0.2373602   -0.1307301     0.0383818    0.1332375     0.0381195    0.1330967     0.1834545   -0.1393439 
   1.700000000     0.1998752   -0.1940165     0.0603569    0.0870749     0.0602745    0.0872837     0.1753785   -0.1994801 
   1.750000000     0.1294178   -0.2624883     0.0439533    0.0607586     0.0439454    0.0609102     0.0789257   -0.2774189 
   1.800000000    -0.0182570   -0.3062313     0.0676656    0.0727818     0.0676685    0.0727643    -0.0706053   -0.2913967 
   1.850000000    -0.1479023   -0.2218373     0.1321365    0.0334050     0.1324587    0.0333793    -0.1661221   -0.2427735 
   1.900000000    -0.2478153   -0.0831116     0.1322059   -0.0296642     0.1318910   -0.0295684    -0.3040471   -0.1177505 
   1.950000000    -0.2234956    0.0874736     0.1016747   -0.0888195     0.1020169   -0.0882875    -0.3057958    0.0526973 
   2.000000000    -0.1326054    0.1975557     0.0674466   -0.1285980     0.0680179   -0.1290367    -0.2002481    0.1542909 
   2.050000000    -0.0273674    0.2094911    -0.0126656   -0.1534319    -0.0124563   -0.1538985    -0.0979494    0.2093268 
   2.100000000     0.0645948    0.2108405    -0.0718831   -0.1183450    -0.0725103   -0.1188314    -0.0234769    0.1950632 
   2.150000000     0.1062550    0.1687732    -0.1189466   -0.0884349    -0.1194673   -0.0889841     0.0408887    0.1695302 
   2.200000000     0.1399481    0.1335265    -0.1592230   -0.0221367    -0.1598042   -0.0221929     0.0817682    0.1428663 
   2.250000000     0.1586856    0.0990358    -0.1430562    0.0710892    -0.1438387    0.0713138     0.0942615    0.0901279 
   2.300000000     0.1717981    0.0442644    -0.0866160    0.1354950    -0.0864221    0.1355649     0.0933160    0.0689350 
   2.350000000     0.1599337   -0.0018084     0.0106522    0.1532386     0.0104893    0.1532749     0.0962456    0.0192277 
   2.400000000     0.1088754   -0.0389285     0.0785527    0.1126185     0.0784774    0.1130430     0.0731905   -0.0149093 
   2.450000000     0.0671690   -0.0319394     0.0997194    0.0418347     0.0995878    0.0420902     0.0351751   -0.0166273 
   2.500000000     0.0407824    0.0140076     0.0871334    0.0114192     0.0870301    0.0115242    -0.0039345   -0.0151167 
   2.550000000     0.0645180    0.0410042     0.0828906   -0.0098916     0.0828119   -0.0098011    -0.0219677    0.0290902 
   2.600000000     0.1107610    0.0646722     0.0823366   -0.0471959     0.0824212   -0.0471977     0.0174636    0.0784183 
   2.650000000     0.1531334    0.0346221     0.0551330   -0.0821430     0.0552104   -0.0822187     0.0696555    0.0664456 
   2.700000000     0.1738073   -0.0173002     0.0140555   -0.1032236     0.0140391   -0.1031933     0.1109696    0.0244558 
   2.750000000     0.1556297   -0.0695690    -0.0411811   -0.0981364    -0.0410049   -0.0981615     0.1028692   -0.0445129 
   2.800000000     0.1192096   -0.0963921    -0.0809064   -0.0642552    -0.0807981   -0.0642983     0.0487430   -0.0741451 
   2.850000000     0.0736743   -0.0953111    -0.0922397   -0.0104330    -0.0922829   -0.0104821     0.0009559   -0.0783333 
   2.900000000     0.0547577   -0.0788861    -0.0834114    0.0388734    -0.0835044    0.0386880    -0.0321115   -0.0421728 
   2.950000000     0.0642751   -0.0680994    -0.0329054    0.0720355    -0.0330618    0.0720570    -0.0139572   -0.0079427 
   3.000000000     0.0632475   -0.1014643     0.0036001    0.0490440     0.0035329    0.0490963     0.0149060   -0.0367045 
   3.050000000     0.0243988   -0.1310057     0.0014484    0.0233200     0.0014672    0.0231937    -0.0192787   -0.0818309 
   3.100000000    -0.0291221   -0.1113115    -0.0070081    0.0239001    -0.0068471    0.0237321    -0.0695775   -0.0839268 
   3.150000000    -0.0600092   -0.0800686    -0.0034074    0.0429165    -0.0032668    0.0427786    -0.1100814   -0.0570987 
   3.200000000    -0.0736813   -0.0360000     0.0207415    0.0513012     0.0208413    0.0510636    -0.1405606   -0.0062408 
   3.250000000    -0.0706677    0.0081369     0.0612932    0.0553210     0.0616880    0.0548549    -0.1453905    0.0500954 
   3.300000000    -0.0502003    0.0339968     0.0967082    0.0072327     0.0966915    0.0073159    -0.1126037    0.0880851 
   3.350000000    -0.0350026    0.0536648     0.0873004   -0.0643928     0.0873880   -0.0643397    -0.0901024    0.0910566 
   3.400000000    -0.0224475    0.0728730     0.0202671   -0.0997290     0.0203042   -0.0998375    -0.0882424    0.1094602 
   3.450000000     0.0025385    0.1105268    -0.0417786   -0.0862324    -0.0418246   -0.0863632    -0.0776750    0.1355507 
   3.500000000     0.0537230    0.1424119    -0.0742366   -0.0289682    -0.0741780   -0.0290109    -0.0509777    0.1791727 
   3.550000000     0.1267835    0.1421245    -0.0580740    0.0135205    -0.0580233    0.0135980     0.0183635    0.2103470 
   3.600000000     0.1897856    0.1013850    -0.0280554    0.0349401    -0.0281670    0.0348987     0.1039039    0.1856965 
   3.650000000     0.2268737    0.0333505    -0.0104708    0.0232183    -0.0102610    0.0231004     0.1437531    0.1123864 
   3.700000000     0.2103464   -0.0406492    -0.0093913    0.0196510    -0.0094051    0.0195719     0.1293234    0.0473640 
   3.750000000     0.1794223   -0.0733785    -0.0044390    0.0222677    -0.0044272    0.0221784     0.1062992    0.0105908 
   3.800000000     0.1420409   -0.0850131     0.0071222    0.0286189     0.0070649    0.0285538     0.0720126    0.0022243 
   3.850000000     0.1241469   -0.0901246     0.0230217    0.0192132     0.0228500    0.0191445     0.0611147    0.0027356 
   3.900000000     0.1017871   -0.0904272     0.0290263    0.0039713     0.0288697    0.0040284     0.0548486   -0.0006358 
   3.950000000     0.0879361   -0.0937641     0.0220689   -0.0115686     0.0219919   -0.0115327     0.0450191   -0.0104733 
   4.000000000     0.0829702   -0.0934698     0.0047453   -0.0214501     0.0048147   -0.0214090     0.0226893   -0.0149852 
   4.050000000     0.0763044   -0.0973704    -0.0089939   -0.0124589    -0.0089354   -0.0124201     0.0090051   -0.0079832 
   4.100000000     0.0723004   -0.1013794    -0.0065329   -0.0029835    -0.0064547   -0.0029867     0.0103046    0.0094908 
   4.150000000     0.0594831   -0.1149727    -0.0016143    0.0031480    -0.0016413    0.0031191     0.0185181    0.0046718 
   4.200000000     0.0391820   -0.1226666     0.0036882    0.0012062     0.0036534    0.0011953     0.0084299   -0.0096322 
   4.250000000     0.0142650   -0.1137322     0.0110314   -0.0047273     0.0109921   -0.0047579    -0.0117447   -0.0138143 
   4.300000000     0.0020847   -0.1055588     0.0015315   -0.0137857     0.0016243   -0.0136771    -0.0368005   -0.0065278 
   4.350000000    -0.0198870   -0.0837261    -0.0090948   -0.0169626    -0.0089214   -0.0169084    -0.0640900    0.0202180 
   4.400000000    -0.0219726   -0.0540406    -0.0167219   -0.0017493    -0.0166546   -0.0018043    -0.0650625    0.0558018 
   4.450000000    -0.0220032   -0.0263780    -0.0162572    0.0024925    -0.0161631    0.0024147    -0.0610274    0.0845270 
   4.500000000     0.0034199    0.0079814    -0.0113273    0.0107316    -0.0112799    0.0106309    -0.0402851    0.1213319 
   4.550000000     0.0398381    0.0246019    -0.0060253    0.0107098    -0.0060428    0.0106452    -0.0016626    0.1382948 
   4.600000000     0.0736748    0.0243484    -0.0081474    0.0196747    -0.0082147    0.0195938     0.0316398    0.1461009 
   4.650000000     0.1166645    0.0094661     0.0028715    0.0248450     0.0027967    0.0246768     0.0709828    0.1435152 
   4.700000000     0.1523784   -0.0202149     0.0214747    0.0221264     0.0211626    0.0221511     0.1111090    0.1253557 
   4.750000000     0.1721144   -0.0738011     0.0328617    0.0071230     0.0329076    0.0070315     0.1430381    0.0859902 
   4.800000000     0.1684423   -0.1321992     0.0299723   -0.0147348     0.0297105   -0.0144738     0.1586245    0.0377006 
   4.850000000     0.1301450   -0.1779800     0.0144322   -0.0292834     0.0144829   -0.0293507     0.1499262   -0.0137576 
   4.900000000     0.0919248   -0.1935518    -0.0008170   -0.0285527    -0.0009009   -0.0282952     0.1191610   -0.0556263 
   4.950000000     0.0551319   -0.2008693    -0.0137287   -0.0232027    -0.0135981   -0.0233024     0.0778639   -0.0743714 
   5.000000000     0.0267012   -0.2046436    -0.0235229   -0.0120177    -0.0234995   -0.0119363     0.0422345   -0.0741899 
   5.050000000     0.0029134   -0.1915079    -0.0200124    0.0040608    -0.0200696    0.0040316     0.0129766   -0.0603875 
   5.100000000    -0.0140808   -0.1899909    -0.0075331    0.0070588    -0.0073811    0.0070379     0.0014884   -0.0430617 
   5.150000000    -0.0397035   -0.1803022    -0.0074859    0.0001091    -0.0075587   -0.0000573    -0.0007278   -0.0451961 
   5.200000000    -0.0677713   -0.1648274    -0.0158976    0.0068296    -0.0160013    0.0069374    -0.0286163   -0.0432297 
   5.250000000    -0.0779877   -0.1252243    -0.0143565    0.0241945    -0.0143940    0.0240939    -0.0517637   -0.0171975 
   5.300000000    -0.0664479   -0.0977485     0.0060533    0.0352718     0.0058663    0.0351375    -0.0558460    0.0179742 
   5.350000000    -0.0476759   -0.0888576     0.0293005    0.0231121     0.0292483    0.0230198    -0.0410774    0.0422709 
   5.400000000    -0.0435958   -0.0918639     0.0424243   -0.0029477     0.0422378   -0.0028637    -0.0196812    0.0515795 
   5.450000000    -0.0545915   -0.0989141     0.0238625   -0.0354766     0.0239441   -0.0351480    -0.0071052    0.0419576 
   5.500000000    -0.0753994   -0.0821639    -0.0070413   -0.0397958    -0.0069759   -0.0395504    -0.0198666    0.0405856 
   5.550000000    -0.0807888   -0.0462681    -0.0290326   -0.0161142    -0.0289280   -0.0159916    -0.0378115    0.0619925 
   5.600000000    -0.0601523   -0.0126720    -0.0235799    0.0078500    -0.0236011    0.0077055    -0.0328264    0.0997549 
   5.650000000    -0.0164688    0.0067279    -0.0050374    0.0191815    -0.0051102    0.0191368     0.0034514    0.1322502 
   5.700000000     0.0193450   -0.0096930     0.0075338    0.0051507     0.0075126    0.0051212     0.0488234    0.1337893 
   5.750000000     0.0391734   -0.0319262     0.0056880   -0.0037704     0.0056575   -0.0037073     0.0896985    0.1229667 
   5.800000000     0.0539465   -0.0553322    -0.0072976   -0.0073307    -0.0071876   -0.0073061     0.1166897    0.0924512 
   5.850000000     0.0587825   -0.0748794    -0.0116420    0.0037905    -0.0116303    0.0037627     0.1274707    0.0660024 
   5.900000000     0.0697341   -0.1008092    -0.0022958    0.0179994    -0.0023726    0.0179433     0.1365687    0.0492236 
   5.950000000     0.0694972   -0.1376351     0.0127913    0.0123576     0.0127493    0.0123131     0.1519715    0.0244258 
   6.000000000     0.0485500   -0.1748993     0.0199278    0.0018379     0.0198842    0.0018416     0.1601217   -0.0132132 
   6.050000000     0.0197861   -0.2011057     0.0140647   -0.0174953     0.0141098   -0.0174281     0.1461546   -0.0619018 
   6.100000000    -0.0271172   -0.2122781    -0.0020091   -0.0224004    -0.0018929   -0.0223156     0.1001404   -0.0967978 
   6.150000000    -0.0671725   -0.1969707    -0.0152274   -0.0094762    -0.0151700   -0.0094482     0.0539965   -0.0951822 
   6.200000000    -0.0936126   -0.1766701    -0.0155506   -0.0001656    -0.0155634   -0.0002264     0.0203000   -0.0788556 
   6.250000000    -0.1042732   -0.1506113    -0.0114227    0.0076918    -0.0113772    0.0076148     0.0052837   -0.0564185 
   6.300000000    -0.1067615   -0.1270324    -0.0011446    0.0122241    -0.0011130    0.0121050     0.0003919   -0.0339455 
   6.350000000    -0.1029784   -0.1127217     0.0029636    0.0063962     0.0029263    0.0063421     0.0019602   -0.0200079 
   6.400000000    -0.0970926   -0.0997528     0.0035705    0.0022551     0.0035238    0.0023255     0.0061734   -0.0101462 
   6.450000000    -0.0869787   -0.1005658     0.0027090    0.0016455     0.0026791    0.0016007     0.0101974   -0.0011365 
   6.500000000    -0.0834492   -0.1050726     0.0030010    0.0032525     0.0029630    0.0032356     0.0181281    0.0105842 
   6.550000000    -0.0862866   -0.1091639     0.0056674   -0.0012143     0.0056303   -0.0011275     0.0455271    0.0115533 
   6.600000000    -0.0887173   -0.1140971     0.0028172   -0.0027685     0.0028318   -0.0027070     0.0666393   -0.0072200 
   6.650000000    -0.0927464   -0.1186016     0.0012424   -0.0034199     0.0012272   -0.0033876     0.0647261   -0.0310256 
   6.700000000    -0.0979234   -0.1292745     0.0005104   -0.0062337     0.0005322   -0.0061955     0.0586288   -0.0459847 
   6.750000000    -0.1187399   -0.1349618    -0.0060052   -0.0036704    -0.0058975   -0.0036854     0.0465590   -0.0568407 
   6.800000000    -0.1356015   -0.1305607    -0.0079543   -0.0003257    -0.0078824   -0.0004037     0.0370842   -0.0635399 
   6.850000000    -0.1476201   -0.1235091    -0.0051882    0.0045358    -0.0051950    0.0045145     0.0345154   -0.0689647 
   6.900000000    -0.1634330   -0.1170174    -0.0009096    0.0071365    -0.0009379    0.0070820     0.0210624   -0.0817603 
   6.950000000    -0.1772100   -0.1010861     0.0002617    0.0062839     0.0002152    0.0062210     0.0018787   -0.0858630 
   7.000000000    -0.1810734   -0.0828797     0.0032778    0.0050488     0.0032146    0.0050145    -0.0099669   -0.0807249 
   7.050000000    -0.1867258   -0.0783773     0.0069386    0.0031936     0.0068840    0.0032446    -0.0202372   -0.0862146 
   7.100000000    -0.1942242   -0.0729519     0.0052582   -0.0040781     0.0052709   -0.0040653    -0.0431132   -0.0808639 
   7.150000000    -0.2101577   -0.0578022     0.0035683   -0.0058873     0.0035716   -0.0058022    -0.0521830   -0.0640812 
   7.200000000    -0.2256942   -0.0423784     0.0007607   -0.0077109     0.0008488   -0.0076567    -0.0489512   -0.0633726 
   7.250000000    -0.2323288   -0.0202152    -0.0057407   -0.0059707    -0.0056722   -0.0059624    -0.0678553   -0.0658360 
   7.300000000    -0.2395453    0.0026772    -0.0085558   -0.0004949    -0.0084909   -0.0005190    -0.0843476   -0.0545567 
   7.350000000    -0.2387881    0.0281275    -0.0075193    0.0030508    -0.0074588    0.0029987    -0.0968835   -0.0339447 
   7.400000000    -0.2403163    0.0545861    -0.0051779    0.0050113    -0.0051650    0.0049490    -0.1028786   -0.0092327 
   7.450000000    -0.2238795    0.0774993    -0.0016187    0.0090082    -0.0016422    0.0089573    -0.0935355    0.0146326 
   7.500000000    -0.2144001    0.0897782     0.0029623    0.0066738     0.0028944    0.0066432    -0.0836777    0.0294054 
   7.550000000    -0.2144665    0.1147100     0.0040254    0.0026892     0.0039511    0.0027483    -0.0751536    0.0402573 
   7.600000000    -0.1946557    0.1411070     0.0019780    0.0014336     0.0019882    0.0014577    -0.0602203    0.0524945 
   7.650000000    -0.1679245    0.1574625     0.0016446    0.0037802     0.0015944    0.0037149    -0.0384810    0.0519709 
   7.700000000    -0.1430700    0.1588299     0.0033880    0.0024286     0.0033364    0.0024391    -0.0352844    0.0390270 
   7.750000000    -0.1364830    0.1725313     0.0023598    0.0012541     0.0022992    0.0012184    -0.0344013    0.0560266 
   7.800000000    -0.1084938    0.1927129     0.0064987    0.0017298     0.0064569    0.0017920    -0.0009485    0.0572649 
   7.850000000    -0.0771264    0.1968210     0.0026674   -0.0017832     0.0026482   -0.0017637     0.0104368    0.0217715 
   7.900000000    -0.0509170    0.1995393     0.0019479    0.0012320     0.0020194    0.0012352    -0.0122541    0.0012854 
   7.950000000    -0.0285508    0.2058531     0.0027288    0.0040952     0.0026882    0.0041593    -0.0247511    0.0087998 
   8.000000000     0.0085744    0.2015591     0.0059585    0.0038921     0.0059174    0.0039668    -0.0245010    0.0120205 
   8.050000000     0.0415373    0.1906129     0.0119701    0.0011693     0.0119681    0.0012045    -0.0335174    0.0123874 
   8.100000000     0.0688841    0.1670173     0.0111074   -0.0073588     0.0110059   -0.0074693    -0.0317626    0.0156356 
   8.150000000     0.0993178    0.1529854     0.0076529   -0.0120152     0.0074868   -0.0120599    -0.0297001    0.0091891 
   8.200000000     0.1014793    0.1235758    -0.0006841   -0.0117674    -0.0007553   -0.0117681    -0.0365458    0.0064057 
   8.250000000     0.1201690    0.0964284    -0.0048463   -0.0090114    -0.0047819   -0.0089203    -0.0445186    0.0121072 
   8.300000000     0.1297201    0.0753480    -0.0018870   -0.0031315    -0.0019161   -0.0030152    -0.0421128    0.0136748 
   8.350000000     0.1343357    0.0367711     0.0002827   -0.0046090     0.0002446   -0.0046887    -0.0398160    0.0143847 
   8.400000000     0.1270960    0.0147826     0.0013742   -0.0063523     0.0012830   -0.0064645    -0.0396734    0.0157190 
   8.450000000     0.1183481   -0.0169805    -0.0030547   -0.0114155    -0.0031196   -0.0114443    -0.0476334    0.0119066 
   8.500000000     0.0974084   -0.0351804    -0.0105552   -0.0097824    -0.0106147   -0.0096361    -0.0596989    0.0013360 
   8.550000000     0.0753700   -0.0382640    -0.0134260   -0.0013994    -0.0134479   -0.0013364    -0.0700254    0.0080350 
   8.600000000     0.0579467   -0.0427717    -0.0085443    0.0057912    -0.0084187    0.0058222    -0.0798205    0.0183823 
   8.650000000     0.0582182   -0.0338631     0.0000305    0.0053542     0.0000489    0.0053050    -0.0843217    0.0324691 
   8.700000000     0.0657282   -0.0251680     0.0021639   -0.0008146     0.0021736   -0.0007206    -0.0873066    0.0445270 
   8.750000000     0.0820339   -0.0296118    -0.0018302   -0.0054355    -0.0018123   -0.0054378    -0.0836849    0.0528010 
   8.800000000     0.0954579   -0.0423922    -0.0064567   -0.0063993    -0.0065181   -0.0062663    -0.0854884    0.0612193 
   8.850000000     0.1032780   -0.0763659    -0.0117579   -0.0022031    -0.0116353   -0.0021585    -0.0795295    0.0680905 
