! MS46122B
! 1728301/71650013
! 6/21/2022 4:06:48 PM
! C:\USERS\MILLIWAVE\DESKTOP\XYSTAGE_PYTHON\DATA\IMAI\DATAFILE#1_UNCOVERED.S2P
! CHANNEL.1
! TR.MEASUREMENT
! CORRECTED.DATA
# GHZ S RI R 50.0
! FREQ.GHZ         S11RE         S11IM         S21RE         S21IM         S12RE         S12IM         S22RE         S22IM         
!; PortSelection: Port_12
   1.000000000     0.4957409   -0.0337628     0.0113524    0.2633243     0.0108650    0.2632230     0.5135313   -0.0584115 
   1.050000000     0.2645497   -0.1249967     0.1734777    0.2317392     0.1733344    0.2316880     0.2831036   -0.2330526 
   1.100000000     0.0902095   -0.1965196     0.2921499    0.1316315     0.2912712    0.1321939     0.0099380   -0.2028158 
   1.150000000    -0.0772676   -0.0443938     0.3037521   -0.0799093     0.3034830   -0.0794923    -0.1105059   -0.0381941 
   1.200000000    -0.1132659    0.1421282     0.2042095   -0.1914735     0.2041579   -0.1914918    -0.1074323    0.1289581 
   1.250000000    -0.0118493    0.2439505     0.0901539   -0.2465008     0.0900053   -0.2460337    -0.0192646    0.2115101 
   1.300000000     0.0631625    0.2699267    -0.0528353   -0.2681012    -0.0515894   -0.2683067     0.0769384    0.2231877 
   1.350000000     0.1809855    0.2601205    -0.1570596   -0.1797958    -0.1558669   -0.1802177     0.1218631    0.2028603 
   1.400000000     0.2394547    0.1923743    -0.1925677   -0.0879625    -0.1920302   -0.0881037     0.1872874    0.2066758 
   1.450000000     0.2764198    0.1252993    -0.2029088   -0.0170559    -0.2023325   -0.0180981     0.2635682    0.1354444 
   1.500000000     0.2811573    0.0680750    -0.1815813    0.0877565    -0.1818361    0.0875413     0.2717818    0.0545052 
   1.550000000     0.3063667    0.0039490    -0.1129953    0.1484012    -0.1132583    0.1476110     0.2831961   -0.0267473 
   1.600000000     0.2943559   -0.0675582    -0.0162414    0.1586854    -0.0170866    0.1585701     0.2362674   -0.1110302 
   1.650000000     0.2627206   -0.1421956     0.0412451    0.1377531     0.0407194    0.1377627     0.1957632   -0.1548786 
   1.700000000     0.2071752   -0.2075467     0.0843936    0.0780891     0.0840235    0.0784096     0.1556922   -0.1993070 
   1.750000000     0.0925363   -0.2757425     0.0474220    0.0335144     0.0470619    0.0336091     0.0876271   -0.2719599 
   1.800000000    -0.0337960   -0.2949365     0.0499095    0.0683196     0.0496599    0.0682609    -0.0576707   -0.2955278 
   1.850000000    -0.1498791   -0.2102750     0.1315167    0.0472403     0.1312861    0.0470069    -0.1822883   -0.2205672 
   1.900000000    -0.2385518   -0.0638117     0.1214732   -0.0196218     0.1211363   -0.0195598    -0.2860863   -0.1182609 
   1.950000000    -0.2159443    0.0862191     0.1220785   -0.0736916     0.1223412   -0.0728232    -0.2767863    0.0590549 
   2.000000000    -0.1181338    0.1635101     0.0925361   -0.1490080     0.0933617   -0.1483776    -0.2014522    0.1544414 
   2.050000000    -0.0507074    0.1907987    -0.0066029   -0.1707937    -0.0061002   -0.1706922    -0.0902487    0.1889565 
   2.100000000     0.0329729    0.2203065    -0.1006759   -0.1510423    -0.1007842   -0.1512613    -0.0221362    0.1910160 
   2.150000000     0.1037726    0.1942165    -0.1514914   -0.0657380    -0.1521283   -0.0665012     0.0268783    0.1857693 
   2.200000000     0.1590156    0.1466555    -0.1505390    0.0207278    -0.1517386    0.0202868     0.0789367    0.1456909 
   2.250000000     0.1880358    0.0970211    -0.1143587    0.0812394    -0.1148004    0.0813928     0.0927645    0.1108160 
   2.300000000     0.1734446    0.0270310    -0.0561553    0.1275155    -0.0562223    0.1272909     0.1255647    0.0706954 
   2.350000000     0.1544561   -0.0290632    -0.0001160    0.1054823    -0.0005078    0.1053719     0.1118698   -0.0137640 
   2.400000000     0.0865990   -0.0258169     0.0313643    0.1009840     0.0306485    0.1009756     0.0618338   -0.0318930 
   2.450000000     0.0589135   -0.0162827     0.0804777    0.0893400     0.0798476    0.0896886    -0.0024435   -0.0259203 
   2.500000000     0.0536357    0.0199172     0.1063370    0.0284096     0.1059476    0.0288735    -0.0171756    0.0155652 
   2.550000000     0.0717028    0.0510742     0.1041415   -0.0144796     0.1040639   -0.0140904     0.0086795    0.0650137 
   2.600000000     0.1216969    0.0518588     0.0886075   -0.0571500     0.0887227   -0.0568290     0.0518755    0.0732818 
   2.650000000     0.1530689    0.0197457     0.0547880   -0.0939518     0.0550678   -0.0937455     0.0905638    0.0378420 
   2.700000000     0.1640675   -0.0271112     0.0050808   -0.1125072     0.0052297   -0.1123748     0.0862707   -0.0038188 
   2.750000000     0.1366029   -0.0711545    -0.0560560   -0.0980832    -0.0557870   -0.0980649     0.0699619   -0.0364219 
   2.800000000     0.1041367   -0.0839412    -0.0969720   -0.0469521    -0.0968038   -0.0473676     0.0322254   -0.0572269 
   2.850000000     0.0867314   -0.0759751    -0.0942624    0.0128894    -0.0943416    0.0124941     0.0090722   -0.0430036 
   2.900000000     0.0800744   -0.0771022    -0.0581869    0.0485865    -0.0582341    0.0483022     0.0040808   -0.0326613 
   2.950000000     0.0770522   -0.0910545    -0.0170543    0.0498605    -0.0172685    0.0496391     0.0092057   -0.0377593 
   3.000000000     0.0497685   -0.1112978    -0.0021009    0.0244303    -0.0022431    0.0242471     0.0038308   -0.0597879 
   3.050000000     0.0045005   -0.1216024    -0.0233182    0.0155806    -0.0232605    0.0156115    -0.0397090   -0.0836551 
   3.100000000    -0.0369384   -0.1062410    -0.0225133    0.0367527    -0.0223859    0.0366662    -0.0771077   -0.0692755 
   3.150000000    -0.0582789   -0.0662013    -0.0070430    0.0578085    -0.0069295    0.0576455    -0.1121824   -0.0348098 
   3.200000000    -0.0656599   -0.0320679     0.0317682    0.0698025     0.0319923    0.0694939    -0.1267236    0.0022662 
   3.250000000    -0.0570868    0.0082684     0.0776300    0.0499689     0.0775539    0.0501707    -0.1197767    0.0451708 
   3.300000000    -0.0340291    0.0277601     0.1023334   -0.0098861     0.1022639   -0.0097069    -0.1088522    0.0615252 
   3.350000000    -0.0335481    0.0384863     0.0766516   -0.0787849     0.0767051   -0.0785839    -0.1004433    0.0782716 
   3.400000000    -0.0357115    0.0728544     0.0028936   -0.1006677     0.0029762   -0.1006404    -0.1101868    0.1109345 
   3.450000000    -0.0080480    0.1170547    -0.0510342   -0.0720268    -0.0508117   -0.0722918    -0.0839569    0.1569513 
   3.500000000     0.0570569    0.1580508    -0.0694248   -0.0219615    -0.0693105   -0.0220183    -0.0417209    0.1927669 
   3.550000000     0.1375411    0.1464486    -0.0504263    0.0210473    -0.0503864    0.0209139     0.0320728    0.2047280 
   3.600000000     0.2094358    0.1000387    -0.0161896    0.0277462    -0.0162287    0.0277509     0.1011221    0.1789176 
   3.650000000     0.2275366    0.0138482    -0.0035097    0.0129490    -0.0035610    0.0128133     0.1413247    0.1088329 
   3.700000000     0.2021211   -0.0407429    -0.0150944    0.0127821    -0.0151483    0.0128164     0.1325964    0.0459792 
   3.750000000     0.1644443   -0.0758334    -0.0134674    0.0190131    -0.0134203    0.0189610     0.0981357    0.0094868 
   3.800000000     0.1346140   -0.0786439    -0.0020712    0.0333870    -0.0022926    0.0332384     0.0705180    0.0034297 
   3.850000000     0.1197902   -0.0814834     0.0216914    0.0325178     0.0214300    0.0324505     0.0549462    0.0072121 
   3.900000000     0.1181982   -0.0814878     0.0417828    0.0147785     0.0415790    0.0148335     0.0543168    0.0060671 
   3.950000000     0.1083469   -0.0923672     0.0377375   -0.0190806     0.0376216   -0.0187979     0.0523086   -0.0018775 
   4.000000000     0.0896924   -0.1086143     0.0118993   -0.0386490     0.0121621   -0.0384531     0.0404433   -0.0237772 
   4.050000000     0.0710276   -0.1095509    -0.0154766   -0.0296482    -0.0152137   -0.0295494     0.0085799   -0.0194929 
   4.100000000     0.0547415   -0.1067763    -0.0252345   -0.0023087    -0.0250487   -0.0023878    -0.0030099   -0.0011144 
   4.150000000     0.0465249   -0.0972906    -0.0129352    0.0160378    -0.0129907    0.0158055     0.0026367    0.0087829 
   4.200000000     0.0455929   -0.1012713     0.0107688    0.0146505     0.0107104    0.0145879     0.0033477    0.0094727 
   4.250000000     0.0357901   -0.1105139     0.0193769    0.0003450     0.0192818    0.0002199    -0.0035208   -0.0046625 
   4.300000000     0.0090880   -0.1168803     0.0158531   -0.0192453     0.0158277   -0.0189533    -0.0259430   -0.0080427 
   4.350000000    -0.0160502   -0.0971000    -0.0037383   -0.0281016    -0.0034011   -0.0280409    -0.0510708    0.0130514 
   4.400000000    -0.0334148   -0.0656073    -0.0243836   -0.0175011    -0.0241933   -0.0175718    -0.0654141    0.0384115 
   4.450000000    -0.0377802   -0.0274226    -0.0313808   -0.0010559    -0.0311329   -0.0012695    -0.0770689    0.0761292 
   4.500000000    -0.0098188    0.0191717    -0.0296846    0.0197359    -0.0295392    0.0194604    -0.0564985    0.1297508 
   4.550000000     0.0389008    0.0391554    -0.0094943    0.0314493    -0.0095885    0.0313560    -0.0073071    0.1552080 
   4.600000000     0.0874717    0.0364308     0.0106565    0.0335258     0.0103879    0.0334367     0.0408165    0.1604466 
   4.650000000     0.1348349    0.0067048     0.0273912    0.0160875     0.0272336    0.0161160     0.0896386    0.1443504 
   4.700000000     0.1646861   -0.0449901     0.0281628   -0.0020834     0.0279698   -0.0017498     0.1238237    0.1108264 
   4.750000000     0.1593533   -0.0953706     0.0161572   -0.0144503     0.0162930   -0.0144595     0.1428017    0.0645630 
   4.800000000     0.1373463   -0.1306351     0.0049509   -0.0123706     0.0048654   -0.0121233     0.1413174    0.0274735 
   4.850000000     0.1125354   -0.1554766     0.0001123   -0.0045973     0.0002230   -0.0048928     0.1314941   -0.0055672 
   4.900000000     0.1016807   -0.1658465     0.0106503   -0.0039948     0.0104965   -0.0037915     0.1090502   -0.0334151 
   4.950000000     0.0861637   -0.1948172     0.0116801   -0.0143669     0.0118621   -0.0142370     0.0909677   -0.0494716 
   5.000000000     0.0520915   -0.2220044     0.0024151   -0.0288665     0.0025392   -0.0287117     0.0744636   -0.0743159 
   5.050000000     0.0003760   -0.2293440    -0.0182975   -0.0289169    -0.0181559   -0.0288818     0.0334166   -0.0916240 
   5.100000000    -0.0462649   -0.2075668    -0.0387897   -0.0131342    -0.0383277   -0.0132151    -0.0095459   -0.0824783 
   5.150000000    -0.0737020   -0.1648392    -0.0420258    0.0163048    -0.0418600    0.0159516    -0.0434553   -0.0522679 
   5.200000000    -0.0722723   -0.1248321    -0.0229549    0.0443471    -0.0231214    0.0441371    -0.0581026   -0.0133729 
   5.250000000    -0.0474232   -0.0956392     0.0145261    0.0488237     0.0143421    0.0485728    -0.0393707    0.0292629 
   5.300000000    -0.0195862   -0.1102904     0.0484419    0.0245363     0.0479305    0.0247504    -0.0071606    0.0273565 
   5.350000000    -0.0373227   -0.1366430     0.0411484   -0.0178973     0.0411248   -0.0176536    -0.0054802    0.0057942 
   5.400000000    -0.0764503   -0.1284922     0.0152626   -0.0369778     0.0153311   -0.0367829    -0.0313308    0.0061371 
   5.450000000    -0.1028289   -0.0859197    -0.0193542   -0.0288747    -0.0189733   -0.0288709    -0.0541592    0.0272838 
   5.500000000    -0.0879973   -0.0366700    -0.0257336    0.0037736    -0.0257635    0.0034714    -0.0571243    0.0736205 
   5.550000000    -0.0516472   -0.0136859    -0.0032173    0.0200275    -0.0033903    0.0200015    -0.0254616    0.1038590 
   5.600000000    -0.0182567   -0.0157911     0.0171344    0.0051229     0.0169860    0.0051923     0.0094324    0.1139176 
   5.650000000    -0.0012680   -0.0295622     0.0143735   -0.0131340     0.0143495   -0.0129098     0.0359930    0.1066545 
   5.700000000     0.0003237   -0.0429032    -0.0059348   -0.0278377    -0.0057039   -0.0278211     0.0462614    0.0970487 
   5.750000000     0.0039421   -0.0343504    -0.0314333   -0.0126436    -0.0312546   -0.0127652     0.0557735    0.1044028 
   5.800000000     0.0287295   -0.0269750    -0.0360066    0.0211088    -0.0358968    0.0207397     0.0849797    0.1120523 
   5.850000000     0.0711159   -0.0417713    -0.0025919    0.0424877    -0.0029480    0.0422604     0.1239145    0.1002691 
   5.900000000     0.1021762   -0.0921488     0.0319606    0.0258535     0.0315596    0.0259860     0.1643728    0.0701309 
   5.950000000     0.0892962   -0.1579474     0.0337725   -0.0061735     0.0336291   -0.0059777     0.1774919    0.0127298 
   6.000000000     0.0486602   -0.1988232     0.0193593   -0.0266203     0.0193687   -0.0264264     0.1627074   -0.0428268 
   6.050000000    -0.0027710   -0.2142880    -0.0056865   -0.0308079    -0.0054897   -0.0307233     0.1279233   -0.0744012 
   6.100000000    -0.0458081   -0.2030944    -0.0268177   -0.0145268    -0.0265768   -0.0147131     0.0850266   -0.0911890 
   6.150000000    -0.0762597   -0.1807306    -0.0229149    0.0117000    -0.0229092    0.0115092     0.0491316   -0.0833861 
   6.200000000    -0.0841285   -0.1596369    -0.0023098    0.0182891    -0.0024467    0.0182919     0.0243169   -0.0650879 
   6.250000000    -0.0851953   -0.1461502     0.0096220    0.0081807     0.0095879    0.0081968     0.0206040   -0.0477453 
   6.300000000    -0.0878440   -0.1414559     0.0104039   -0.0023802     0.0102646   -0.0023443     0.0103899   -0.0453323 
   6.350000000    -0.1057113   -0.1314053    -0.0012937   -0.0118534    -0.0012977   -0.0118071    -0.0028667   -0.0318020 
   6.400000000    -0.1136716   -0.1101395    -0.0124665   -0.0043486    -0.0124025   -0.0043954    -0.0026154   -0.0114195 
   6.450000000    -0.1043877   -0.0949609    -0.0130430    0.0096952    -0.0130778    0.0095581     0.0069228    0.0022271 
   6.500000000    -0.0904738   -0.0882374    -0.0003111    0.0179158    -0.0003756    0.0179173     0.0192157    0.0143800 
   6.550000000    -0.0722958   -0.0965868     0.0151025    0.0103418     0.0149381    0.0105294     0.0444375    0.0126868 
   6.600000000    -0.0699561   -0.1143472     0.0189406   -0.0044657     0.0188153   -0.0042042     0.0621552   -0.0030355 
   6.650000000    -0.0820241   -0.1334408     0.0105248   -0.0169355     0.0105369   -0.0167566     0.0709181   -0.0265626 
   6.700000000    -0.1037592   -0.1458974    -0.0056776   -0.0189240    -0.0054814   -0.0188864     0.0670198   -0.0508344 
   6.750000000    -0.1344236   -0.1395512    -0.0180143   -0.0071037    -0.0178379   -0.0072128     0.0497524   -0.0662859 
   6.800000000    -0.1498489   -0.1224092    -0.0181985    0.0066686    -0.0181440    0.0064078     0.0298504   -0.0699213 
   6.850000000    -0.1493977   -0.1073355    -0.0067483    0.0154981    -0.0068766    0.0152941     0.0248626   -0.0662424 
   6.900000000    -0.1509674   -0.1077511     0.0055050    0.0157092     0.0053497    0.0156297     0.0167937   -0.0749189 
   6.950000000    -0.1638507   -0.1039495     0.0128121    0.0069010     0.0126692    0.0069829     0.0054515   -0.0745795 
   7.000000000    -0.1741679   -0.0969216     0.0118260   -0.0046582     0.0118592   -0.0045651    -0.0003892   -0.0783510 
   7.050000000    -0.1900827   -0.0930849     0.0047076   -0.0101328     0.0048003   -0.0100251    -0.0086525   -0.0935691 
   7.100000000    -0.2091869   -0.0805919    -0.0054541   -0.0099131    -0.0053065   -0.0098895    -0.0416012   -0.0949073 
   7.150000000    -0.2249877   -0.0515901    -0.0069212    0.0015636    -0.0068954    0.0014966    -0.0626424   -0.0729129 
   7.200000000    -0.2255752   -0.0259589    -0.0036583    0.0041958    -0.0036828    0.0040963    -0.0639695   -0.0564696 
   7.250000000    -0.2199264   -0.0083350     0.0028968    0.0058423     0.0027675    0.0058077    -0.0687043   -0.0513151 
   7.300000000    -0.2197355   -0.0031122     0.0074701   -0.0015636     0.0074511   -0.0015234    -0.0758744   -0.0449778 
   7.350000000    -0.2338891    0.0112245     0.0014252   -0.0102690     0.0015079   -0.0101855    -0.0831449   -0.0344153 
   7.400000000    -0.2488030    0.0380524    -0.0108561   -0.0072636    -0.0107692   -0.0073119    -0.0964545   -0.0205272 
   7.450000000    -0.2425926    0.0761642    -0.0149697    0.0041869    -0.0149112    0.0039827    -0.0979447    0.0055816 
   7.500000000    -0.2262374    0.1033998    -0.0101179    0.0152446    -0.0102712    0.0149433    -0.0965359    0.0221368 
   7.550000000    -0.2097294    0.1319556     0.0026776    0.0218431     0.0023903    0.0217889    -0.0915341    0.0486242 
   7.600000000    -0.1786209    0.1468235     0.0163320    0.0129245     0.0161264    0.0129899    -0.0625530    0.0707427 
   7.650000000    -0.1530784    0.1457188     0.0192734   -0.0045526     0.0192477   -0.0041746    -0.0207850    0.0613321 
   7.700000000    -0.1459194    0.1401644     0.0073166   -0.0177173     0.0075580   -0.0175072    -0.0188645    0.0296718 
   7.750000000    -0.1530466    0.1629448    -0.0095081   -0.0117467    -0.0092805   -0.0118430    -0.0342433    0.0371656 
   7.800000000    -0.1241545    0.1994502    -0.0115343    0.0037973    -0.0115319    0.0036244    -0.0151284    0.0453863 
   7.850000000    -0.0778773    0.2124185    -0.0048218    0.0149539    -0.0049980    0.0148341    -0.0068457    0.0262924 
   7.900000000    -0.0412238    0.2089221     0.0094103    0.0178897     0.0091505    0.0179976    -0.0174918    0.0183932 
   7.950000000    -0.0202020    0.2028336     0.0228740    0.0062460     0.0227014    0.0065165    -0.0130415    0.0208677 
   8.000000000     0.0121010    0.1939758     0.0178666   -0.0113498     0.0180006   -0.0110251    -0.0069083    0.0101517 
   8.050000000     0.0372855    0.1809557     0.0073548   -0.0165695     0.0073676   -0.0164930    -0.0261810   -0.0029791 
   8.100000000     0.0579402    0.1633500    -0.0049622   -0.0132971    -0.0049878   -0.0132111    -0.0406830   -0.0001971 
   8.150000000     0.0859985    0.1578093    -0.0098989   -0.0027432    -0.0098860   -0.0026163    -0.0468046    0.0086862 
   8.200000000     0.0975204    0.1389067    -0.0020535    0.0078024    -0.0019827    0.0077541    -0.0478885    0.0220065 
   8.250000000     0.1290183    0.1089163     0.0118312    0.0047667     0.0118317    0.0047264    -0.0345313    0.0280065 
   8.300000000     0.1431264    0.0744909     0.0189784   -0.0099386     0.0189390   -0.0099271    -0.0265436    0.0117460 
   8.350000000     0.1447665    0.0250401     0.0058168   -0.0241460     0.0056963   -0.0242371    -0.0322966    0.0066439 
   8.400000000     0.1208604    0.0001004    -0.0131871   -0.0239960    -0.0131836   -0.0238653    -0.0407294    0.0024243 
   8.450000000     0.1015263   -0.0176111    -0.0252397   -0.0084063    -0.0251158   -0.0083622    -0.0621783    0.0075583 
   8.500000000     0.0860916   -0.0212621    -0.0187988    0.0100323    -0.0186549    0.0100481    -0.0711828    0.0104488 
   8.550000000     0.0797483   -0.0216746    -0.0015215    0.0144541    -0.0015302    0.0144137    -0.0659391    0.0191973 
   8.600000000     0.0765975   -0.0364661     0.0108045    0.0048137     0.0108431    0.0047793    -0.0720417    0.0220388 
   8.650000000     0.0731712   -0.0435760     0.0086567   -0.0106798     0.0085888   -0.0107153    -0.0785035    0.0305743 
   8.700000000     0.0659547   -0.0437306    -0.0052023   -0.0155297    -0.0052928   -0.0155385    -0.0835730    0.0375493 
   8.750000000     0.0652125   -0.0413622    -0.0171616   -0.0094261    -0.0171022   -0.0092783    -0.0869748    0.0475138 
   8.800000000     0.0759406   -0.0376304    -0.0190195    0.0040792    -0.0189494    0.0041789    -0.0916795    0.0596633 
   8.850000000     0.0992384   -0.0572118    -0.0102833    0.0135862    -0.0101417    0.0136528    -0.0853406    0.0726293 
