! MS46122B
! 1728301/71650013
! 6/21/2022 4:12:33 PM
! C:\USERS\MILLIWAVE\DESKTOP\XYSTAGE_PYTHON\DATA\IMAI\DATAFILE#1_2CM.S2P
! CHANNEL.1
! TR.MEASUREMENT
! CORRECTED.DATA
# GHZ S RI R 50.0
! FREQ.GHZ         S11RE         S11IM         S21RE         S21IM         S12RE         S12IM         S22RE         S22IM         
!; PortSelection: Port_12
   1.000000000     0.5103806   -0.0251237     0.0014962    0.2708233     0.0018633    0.2710383     0.5202568   -0.0769155 
   1.050000000     0.2632657   -0.1478595     0.1700674    0.2324922     0.1704816    0.2322954     0.2644044   -0.2281559 
   1.100000000     0.0718346   -0.1937597     0.2980287    0.1139369     0.2977128    0.1142613     0.0086730   -0.1698795 
   1.150000000    -0.0807030   -0.0294521     0.3054576   -0.0693274     0.3054234   -0.0693507    -0.0902060   -0.0366070 
   1.200000000    -0.1075293    0.1512879     0.2088935   -0.1991742     0.2090386   -0.1996042    -0.1028451    0.1223273 
   1.250000000    -0.0011326    0.2376217     0.0989845   -0.2456318     0.0988278   -0.2455466    -0.0267973    0.2099269 
   1.300000000     0.0758823    0.2640133    -0.0591641   -0.2656938    -0.0584948   -0.2659707     0.0530853    0.2044598 
   1.350000000     0.1747675    0.2562276    -0.1467230   -0.1849175    -0.1464655   -0.1851977     0.1049761    0.2356512 
   1.400000000     0.2278829    0.2008555    -0.1992065   -0.1143765    -0.1990005   -0.1142127     0.2167633    0.2117082 
   1.450000000     0.2783234    0.1415946    -0.2231476   -0.0146786    -0.2228226   -0.0151947     0.2700404    0.1052606 
   1.500000000     0.3034155    0.0749109    -0.1874853    0.1043073    -0.1875820    0.1042341     0.2718691    0.0480536 
   1.550000000     0.3197763   -0.0009756    -0.0946231    0.1536960    -0.0949527    0.1534452     0.2688498   -0.0256966 
   1.600000000     0.2762583   -0.0970543    -0.0081318    0.1501325    -0.0084351    0.1504027     0.2610554   -0.1018349 
   1.650000000     0.2381275   -0.1414292     0.0389877    0.1227037     0.0388123    0.1225333     0.1891045   -0.1491194 
   1.700000000     0.1936204   -0.1982947     0.0515734    0.0816033     0.0514030    0.0816257     0.1698952   -0.2081854 
   1.750000000     0.1209452   -0.2611381     0.0332748    0.0598813     0.0332004    0.0598935     0.0672239   -0.2797842 
   1.800000000    -0.0243279   -0.2994321     0.0612899    0.0817675     0.0612862    0.0818727    -0.0790841   -0.2837964 
   1.850000000    -0.1422087   -0.2124456     0.1390504    0.0454121     0.1393304    0.0450968    -0.1604834   -0.2316045 
   1.900000000    -0.2383566   -0.0845861     0.1443904   -0.0289575     0.1439145   -0.0286674    -0.2929196   -0.1140955 
   1.950000000    -0.2194163    0.0785566     0.1112416   -0.0978520     0.1115132   -0.0972582    -0.2938085    0.0459853 
   2.000000000    -0.1379006    0.1856717     0.0638723   -0.1424088     0.0645288   -0.1425713    -0.2011789    0.1394106 
   2.050000000    -0.0402189    0.2092980    -0.0254543   -0.1584495    -0.0252220   -0.1586293    -0.1081640    0.1989312 
   2.100000000     0.0576465    0.2204710    -0.0852035   -0.1071604    -0.0859653   -0.1074633    -0.0413922    0.2011815 
   2.150000000     0.1135559    0.1792284    -0.1141232   -0.0722596    -0.1145221   -0.0725783     0.0385349    0.1888644 
   2.200000000     0.1499888    0.1330043    -0.1432400   -0.0196016    -0.1439259   -0.0197391     0.0960485    0.1512070 
   2.250000000     0.1631788    0.0918979    -0.1341847    0.0615029    -0.1348684    0.0616762     0.1108468    0.0839289 
   2.300000000     0.1720196    0.0341825    -0.0859979    0.1226000    -0.0858720    0.1225880     0.0988441    0.0521530 
   2.350000000     0.1515160   -0.0082511    -0.0025924    0.1444910    -0.0026833    0.1448082     0.0862685    0.0064896 
   2.400000000     0.0965480   -0.0343260     0.0630470    0.1193063     0.0627725    0.1194379     0.0556537   -0.0122226 
   2.450000000     0.0674096   -0.0202284     0.0979661    0.0589250     0.0978107    0.0592470     0.0288255   -0.0019539 
   2.500000000     0.0506815    0.0187917     0.0984744    0.0205458     0.0984365    0.0208000     0.0042288   -0.0008634 
   2.550000000     0.0737414    0.0370325     0.0956995   -0.0148306     0.0956489   -0.0146113    -0.0052804    0.0291314 
   2.600000000     0.1126004    0.0551674     0.0864740   -0.0610295     0.0865682   -0.0610049     0.0261360    0.0665383 
   2.650000000     0.1468786    0.0283602     0.0463793   -0.0926041     0.0464114   -0.0926914     0.0651837    0.0543028 
   2.700000000     0.1660490   -0.0156094     0.0032183   -0.1020981     0.0031514   -0.1021891     0.0982527    0.0204302 
   2.750000000     0.1506504   -0.0635859    -0.0474130   -0.0886209    -0.0472249   -0.0886746     0.0896984   -0.0357235 
   2.800000000     0.1205880   -0.0881583    -0.0765129   -0.0522414    -0.0764725   -0.0523229     0.0483817   -0.0605367 
   2.850000000     0.0816772   -0.0916767    -0.0796784   -0.0069308    -0.0796224   -0.0071634     0.0127482   -0.0691583 
   2.900000000     0.0634353   -0.0854635    -0.0710654    0.0297189    -0.0712563    0.0296209    -0.0179913   -0.0475537 
   2.950000000     0.0628197   -0.0772188    -0.0363313    0.0576925    -0.0364605    0.0577200    -0.0116994   -0.0242138 
   3.000000000     0.0556751   -0.1043014    -0.0081106    0.0446653    -0.0082542    0.0445832     0.0032290   -0.0452731 
   3.050000000     0.0179608   -0.1250876    -0.0085096    0.0317481    -0.0085238    0.0316742    -0.0318290   -0.0759614 
   3.100000000    -0.0271006   -0.1046884    -0.0050281    0.0348846    -0.0050329    0.0348884    -0.0701447   -0.0745238 
   3.150000000    -0.0562548   -0.0789362     0.0045042    0.0460918     0.0044858    0.0460983    -0.1059729   -0.0522089 
   3.200000000    -0.0719116   -0.0371571     0.0286159    0.0486472     0.0286355    0.0487780    -0.1325254   -0.0044912 
   3.250000000    -0.0678118    0.0068260     0.0639601    0.0469575     0.0640650    0.0469277    -0.1393612    0.0438401 
   3.300000000    -0.0491889    0.0308001     0.0926023    0.0008662     0.0925467    0.0008776    -0.1149440    0.0796980 
   3.350000000    -0.0381100    0.0529255     0.0779534   -0.0626628     0.0780179   -0.0626764    -0.0976098    0.0892755 
   3.400000000    -0.0232667    0.0739578     0.0178965   -0.0910658     0.0178841   -0.0911459    -0.0948968    0.1138139 
   3.450000000     0.0016984    0.1096736    -0.0355993   -0.0814796    -0.0355991   -0.0815803    -0.0761464    0.1423324 
   3.500000000     0.0490253    0.1444284    -0.0704220   -0.0318425    -0.0704192   -0.0319181    -0.0450947    0.1787686 
   3.550000000     0.1269116    0.1502253    -0.0600484    0.0105328    -0.0600850    0.0104784     0.0196598    0.2062521 
   3.600000000     0.1981362    0.1044706    -0.0301202    0.0361216    -0.0302186    0.0361394     0.1004378    0.1850044 
   3.650000000     0.2346077    0.0272978    -0.0088918    0.0250035    -0.0089202    0.0249873     0.1447369    0.1151103 
   3.700000000     0.2091732   -0.0515306    -0.0065225    0.0172624    -0.0064764    0.0172086     0.1342640    0.0466157 
   3.750000000     0.1681494   -0.0796601    -0.0072730    0.0166862    -0.0072795    0.0166378     0.1060194    0.0046702 
   3.800000000     0.1302051   -0.0791861    -0.0006564    0.0259485    -0.0006766    0.0258693     0.0669097   -0.0036065 
   3.850000000     0.1228590   -0.0770543     0.0169803    0.0266139     0.0167675    0.0265639     0.0508408    0.0063658 
   3.900000000     0.1158577   -0.0824019     0.0361081    0.0150345     0.0359551    0.0150121     0.0551932    0.0117237 
   3.950000000     0.1036670   -0.1008148     0.0354861   -0.0113607     0.0355433   -0.0112453     0.0560972   -0.0043982 
   4.000000000     0.0860887   -0.1109090     0.0123450   -0.0336623     0.0125029   -0.0335617     0.0343161   -0.0217595 
   4.050000000     0.0644522   -0.1075284    -0.0148661   -0.0230177    -0.0147240   -0.0229331     0.0094678   -0.0208497 
   4.100000000     0.0583690   -0.0939987    -0.0198877   -0.0023370    -0.0197402   -0.0023372    -0.0022479    0.0016648 
   4.150000000     0.0575706   -0.0984973    -0.0085762    0.0162206    -0.0085934    0.0161686     0.0044450    0.0125490 
   4.200000000     0.0492573   -0.1120784     0.0098912    0.0129460     0.0098591    0.0128637     0.0085392    0.0028149 
   4.250000000     0.0287519   -0.1170381     0.0236342   -0.0027881     0.0234385   -0.0029489    -0.0035294   -0.0064843 
   4.300000000     0.0055268   -0.1174578     0.0103538   -0.0231156     0.0104082   -0.0227828    -0.0249990   -0.0074016 
   4.350000000    -0.0246401   -0.0939599    -0.0115457   -0.0296342    -0.0112810   -0.0295580    -0.0580163    0.0092005 
   4.400000000    -0.0335974   -0.0558091    -0.0278883   -0.0073315    -0.0276906   -0.0074418    -0.0718097    0.0445172 
   4.450000000    -0.0315870   -0.0165829    -0.0282993    0.0082917    -0.0282122    0.0081514    -0.0732904    0.0831038 
   4.500000000     0.0034937    0.0211077    -0.0143643    0.0243559    -0.0143991    0.0240605    -0.0504724    0.1301590 
   4.550000000     0.0501374    0.0310699     0.0029178    0.0215293     0.0028721    0.0213687    -0.0015398    0.1515915 
   4.600000000     0.0847827    0.0197165     0.0072247    0.0166532     0.0070612    0.0166555     0.0439673    0.1527054 
   4.650000000     0.1191802   -0.0034375     0.0098141    0.0101716     0.0097520    0.0101009     0.0830423    0.1375709 
   4.700000000     0.1425487   -0.0292635     0.0128925    0.0072228     0.0126851    0.0072927     0.1141449    0.1103993 
   4.750000000     0.1594362   -0.0717370     0.0148353    0.0059657     0.0148542    0.0059312     0.1316240    0.0734055 
   4.800000000     0.1622259   -0.1184437     0.0199852    0.0002996     0.0197248    0.0005684     0.1422023    0.0414443 
   4.850000000     0.1368534   -0.1671912     0.0218971   -0.0131937     0.0219423   -0.0132954     0.1445206    0.0016485 
   4.900000000     0.1037425   -0.1949577     0.0166568   -0.0270479     0.0165613   -0.0267448     0.1289531   -0.0441106 
   4.950000000     0.0618334   -0.2095595    -0.0027884   -0.0355561    -0.0026546   -0.0354274     0.0930183   -0.0727995 
   5.000000000     0.0249286   -0.2147807    -0.0264253   -0.0280510    -0.0262536   -0.0279051     0.0532506   -0.0874546 
   5.050000000    -0.0072426   -0.1977065    -0.0354482   -0.0037023    -0.0354035   -0.0036783     0.0082345   -0.0779232 
   5.100000000    -0.0257654   -0.1842126    -0.0234860    0.0166057    -0.0232249    0.0165086    -0.0171441   -0.0480036 
   5.150000000    -0.0406936   -0.1685915    -0.0084476    0.0188033    -0.0085394    0.0186436    -0.0141331   -0.0317029 
   5.200000000    -0.0592393   -0.1578554    -0.0006579    0.0158761    -0.0007086    0.0159568    -0.0239646   -0.0249030 
   5.250000000    -0.0666809   -0.1276539     0.0025391    0.0167783     0.0025686    0.0167005    -0.0332281   -0.0121803 
   5.300000000    -0.0627201   -0.1082992     0.0088570    0.0156502     0.0086821    0.0156511    -0.0424864    0.0045479 
   5.350000000    -0.0535572   -0.0977978     0.0145987    0.0112861     0.0146388    0.0113037    -0.0449385    0.0253185 
   5.400000000    -0.0548174   -0.0910454     0.0251169    0.0031175     0.0250677    0.0031884    -0.0361411    0.0455712 
   5.450000000    -0.0591645   -0.0893090     0.0200457   -0.0172773     0.0202184   -0.0172127    -0.0213138    0.0525159 
   5.500000000    -0.0703983   -0.0750589     0.0075006   -0.0276786     0.0074794   -0.0275770    -0.0171341    0.0574306 
   5.550000000    -0.0741586   -0.0465155    -0.0123973   -0.0211355    -0.0123393   -0.0210795    -0.0222701    0.0673121 
   5.600000000    -0.0556132   -0.0174965    -0.0198191   -0.0090959    -0.0197918   -0.0091927    -0.0210138    0.0913239 
   5.650000000    -0.0178496    0.0010336    -0.0176037    0.0077104    -0.0176104    0.0077108     0.0014580    0.1179217 
   5.700000000     0.0157111   -0.0113229    -0.0068250    0.0100978    -0.0068323    0.0101082     0.0351643    0.1285950 
   5.750000000     0.0355828   -0.0320852     0.0035288    0.0105964     0.0034383    0.0105792     0.0803846    0.1315447 
   5.800000000     0.0506463   -0.0519623     0.0034491    0.0014891     0.0034800    0.0014777     0.1200124    0.1045386 
   5.850000000     0.0594803   -0.0703597     0.0009196   -0.0013130     0.0009106   -0.0012936     0.1377512    0.0697381 
   5.900000000     0.0728405   -0.0980945    -0.0006228    0.0049998    -0.0006743    0.0049825     0.1455548    0.0405060 
   5.950000000     0.0736109   -0.1382105     0.0024665    0.0064147     0.0023945    0.0063738     0.1481192    0.0129441 
   6.000000000     0.0512737   -0.1808489     0.0106406    0.0072866     0.0105839    0.0072871     0.1488674   -0.0137713 
   6.050000000     0.0168228   -0.2057859     0.0143752   -0.0081329     0.0143330   -0.0080475     0.1415935   -0.0525213 
   6.100000000    -0.0312859   -0.2125441     0.0058127   -0.0185600     0.0058322   -0.0184055     0.1052519   -0.0880640 
   6.150000000    -0.0724824   -0.1942903    -0.0086427   -0.0132274    -0.0085476   -0.0131898     0.0635538   -0.0956051 
   6.200000000    -0.0939001   -0.1709697    -0.0160110   -0.0077855    -0.0159609   -0.0078392     0.0252370   -0.0875623 
   6.250000000    -0.0991099   -0.1464578    -0.0179017    0.0046034    -0.0177521    0.0045671    -0.0016735   -0.0651752 
   6.300000000    -0.1005526   -0.1288238    -0.0072652    0.0167597    -0.0071892    0.0166585    -0.0107362   -0.0320013 
   6.350000000    -0.1003360   -0.1191920     0.0052423    0.0140972     0.0051846    0.0140372    -0.0014685   -0.0104181 
   6.400000000    -0.1015942   -0.1069885     0.0106307    0.0028136     0.0105885    0.0028693     0.0148588   -0.0017205 
   6.450000000    -0.0955691   -0.0997977     0.0060707   -0.0040935     0.0060673   -0.0040455     0.0207066   -0.0044665 
   6.500000000    -0.0870419   -0.0978621     0.0001279   -0.0023374     0.0001357   -0.0023697     0.0213505    0.0004491 
   6.550000000    -0.0826914   -0.1023988    -0.0003009   -0.0018035    -0.0002637   -0.0017752     0.0377544    0.0026669 
   6.600000000    -0.0810403   -0.1135660    -0.0002744    0.0024173    -0.0003174    0.0023800     0.0553004   -0.0040248 
   6.650000000    -0.0878011   -0.1238586     0.0039126    0.0014462     0.0038416    0.0014470     0.0606577   -0.0195497 
   6.700000000    -0.0993297   -0.1368154     0.0062916   -0.0054622     0.0062697   -0.0053265     0.0656923   -0.0368972 
   6.750000000    -0.1243232   -0.1378435    -0.0015027   -0.0081041    -0.0014513   -0.0080313     0.0583318   -0.0582962 
   6.800000000    -0.1416947   -0.1274894    -0.0098366   -0.0061058    -0.0097632   -0.0061135     0.0433090   -0.0740067 
   6.850000000    -0.1492835   -0.1165046    -0.0119955    0.0029166    -0.0119617    0.0028652     0.0287476   -0.0802020 
   6.900000000    -0.1588828   -0.1118664    -0.0057136    0.0120958    -0.0057667    0.0119654     0.0075739   -0.0825885 
   6.950000000    -0.1709365   -0.1014370     0.0022708    0.0126423     0.0021419    0.0125708    -0.0064201   -0.0756582 
   7.000000000    -0.1771850   -0.0889389     0.0094733    0.0069077     0.0093314    0.0069600    -0.0054289   -0.0683026 
   7.050000000    -0.1889072   -0.0846541     0.0114401   -0.0015124     0.0114293   -0.0014125    -0.0069096   -0.0831555 
   7.100000000    -0.2011733   -0.0758341     0.0049102   -0.0106527     0.0049303   -0.0105758    -0.0334363   -0.0907498 
   7.150000000    -0.2160720   -0.0530176    -0.0024494   -0.0085335    -0.0023862   -0.0084812    -0.0561825   -0.0773615 
   7.200000000    -0.2250708   -0.0356188    -0.0048413   -0.0036599    -0.0047602   -0.0036835    -0.0612665   -0.0675440 
   7.250000000    -0.2264202   -0.0171224    -0.0056082    0.0004035    -0.0055139    0.0003301    -0.0779221   -0.0577781 
   7.300000000    -0.2330346   -0.0003055    -0.0026730    0.0032444    -0.0026880    0.0032016    -0.0842501   -0.0404788 
   7.350000000    -0.2381042    0.0208790    -0.0008667    0.0001919    -0.0008553    0.0001761    -0.0851729   -0.0274180 
   7.400000000    -0.2454719    0.0499687    -0.0040435   -0.0015142    -0.0040013   -0.0015362    -0.0917817   -0.0153904 
   7.450000000    -0.2303986    0.0790551    -0.0072845    0.0039081    -0.0073087    0.0038429    -0.0918641    0.0020725 
   7.500000000    -0.2163043    0.0960258    -0.0043071    0.0088201    -0.0043472    0.0087050    -0.0940243    0.0212827 
   7.550000000    -0.2107946    0.1191211     0.0025586    0.0102580     0.0024652    0.0102445    -0.0879581    0.0442402 
   7.600000000    -0.1890538    0.1405834     0.0076016    0.0063919     0.0076098    0.0063743    -0.0628557    0.0647186 
   7.650000000    -0.1654573    0.1529299     0.0084883    0.0012322     0.0084513    0.0012195    -0.0294778    0.0605116 
   7.700000000    -0.1454269    0.1547751     0.0050054   -0.0048001     0.0050715   -0.0047798    -0.0231176    0.0362356 
   7.750000000    -0.1411883    0.1720866    -0.0025926   -0.0030175    -0.0025735   -0.0030463    -0.0306012    0.0449960 
   7.800000000    -0.1114727    0.1956415     0.0005388    0.0037581     0.0004549    0.0037650    -0.0074571    0.0478227 
   7.850000000    -0.0760749    0.2010007     0.0014713    0.0039906     0.0013956    0.0039361    -0.0003762    0.0234597 
   7.900000000    -0.0479572    0.2007192     0.0055478    0.0052624     0.0055295    0.0052871    -0.0166745    0.0110077 
   7.950000000    -0.0265284    0.2042812     0.0082328    0.0026794     0.0081766    0.0027105    -0.0193252    0.0165528 
   8.000000000     0.0091193    0.1996540     0.0080468   -0.0017924     0.0081161   -0.0016575    -0.0146786    0.0119456 
   8.050000000     0.0399351    0.1881626     0.0081675   -0.0029454     0.0081585   -0.0029922    -0.0291844    0.0039054 
   8.100000000     0.0667654    0.1671443     0.0061139   -0.0064161     0.0060094   -0.0063965    -0.0360712    0.0086036 
   8.150000000     0.0988954    0.1539847     0.0062105   -0.0069147     0.0061764   -0.0069906    -0.0379418    0.0086325 
   8.200000000     0.1018288    0.1254047     0.0030259   -0.0078220     0.0029398   -0.0078806    -0.0410011    0.0126814 
   8.250000000     0.1221155    0.0975344     0.0000441   -0.0104185     0.0000079   -0.0103872    -0.0413889    0.0182190 
   8.300000000     0.1319029    0.0747937    -0.0008972   -0.0074801    -0.0008890   -0.0074373    -0.0358638    0.0140797 
   8.350000000     0.1349088    0.0353879    -0.0030523   -0.0079010    -0.0031168   -0.0078753    -0.0357817    0.0098249 
   8.400000000     0.1263724    0.0124943    -0.0029159   -0.0045502    -0.0029437   -0.0045197    -0.0424897    0.0102101 
   8.450000000     0.1163742   -0.0175958    -0.0037041   -0.0066407    -0.0037550   -0.0065450    -0.0527522    0.0120134 
   8.500000000     0.0956958   -0.0333495    -0.0063985   -0.0074664    -0.0063050   -0.0073923    -0.0618480    0.0061690 
   8.550000000     0.0757223   -0.0361118    -0.0095756   -0.0041559    -0.0096166   -0.0041810    -0.0666319    0.0116552 
   8.600000000     0.0597314   -0.0420861    -0.0092011    0.0014514    -0.0091378    0.0014951    -0.0755249    0.0170771 
   8.650000000     0.0599618   -0.0344646    -0.0040877    0.0036224    -0.0040354    0.0035903    -0.0837950    0.0284230 
   8.700000000     0.0659945   -0.0266046    -0.0015553    0.0023920    -0.0015249    0.0023904    -0.0903028    0.0429937 
   8.750000000     0.0808932   -0.0307452    -0.0008691   -0.0009498    -0.0008466   -0.0009508    -0.0859177    0.0551904 
   8.800000000     0.0942599   -0.0433382    -0.0018311   -0.0053777    -0.0019304   -0.0053051    -0.0841778    0.0644512 
   8.850000000     0.1012912   -0.0756105    -0.0082567   -0.0059202    -0.0082598   -0.0058389    -0.0758416    0.0681005 
