! MS46122B
! 1728301/71650013
! 6/21/2022 4:11:19 PM
! C:\USERS\MILLIWAVE\DESKTOP\XYSTAGE_PYTHON\DATA\IMAI\DATAFILE#1_1CM.S2P
! CHANNEL.1
! TR.MEASUREMENT
! CORRECTED.DATA
# GHZ S RI R 50.0
! FREQ.GHZ         S11RE         S11IM         S21RE         S21IM         S12RE         S12IM         S22RE         S22IM         
!; PortSelection: Port_12
   1.000000000     0.5113757   -0.0238216     0.0013252    0.2713852     0.0015740    0.2717421     0.5236882   -0.0757665 
   1.050000000     0.2645489   -0.1501103     0.1706236    0.2302146     0.1710326    0.2299891     0.2652126   -0.2249424 
   1.100000000     0.0714831   -0.1958702     0.2971557    0.1114357     0.2967258    0.1117723     0.0046800   -0.1693727 
   1.150000000    -0.0787036   -0.0303950     0.3035860   -0.0714641     0.3035588   -0.0711744    -0.0924268   -0.0386934 
   1.200000000    -0.1083467    0.1557555     0.2056846   -0.1966065     0.2057390   -0.1971149    -0.1048306    0.1241941 
   1.250000000    -0.0000965    0.2394426     0.1012847   -0.2431922     0.1012474   -0.2432537    -0.0295803    0.2104444 
   1.300000000     0.0756712    0.2636160    -0.0564734   -0.2660207    -0.0558850   -0.2662103     0.0550885    0.2032899 
   1.350000000     0.1743279    0.2524109    -0.1443906   -0.1875733    -0.1442276   -0.1878991     0.1076441    0.2311460 
   1.400000000     0.2269281    0.1968275    -0.2023352   -0.1164058    -0.2021857   -0.1162206     0.2141451    0.2110758 
   1.450000000     0.2761774    0.1428569    -0.2245727   -0.0135647    -0.2242634   -0.0142110     0.2676384    0.1048252 
   1.500000000     0.3025623    0.0757708    -0.1903599    0.1046926    -0.1906175    0.1045586     0.2694605    0.0512079 
   1.550000000     0.3206198    0.0036632    -0.0958497    0.1614017    -0.0962833    0.1611798     0.2669030   -0.0210599 
   1.600000000     0.2831184   -0.0943484    -0.0026220    0.1540703    -0.0029439    0.1544497     0.2630995   -0.0978160 
   1.650000000     0.2462083   -0.1481248     0.0456882    0.1166444     0.0454466    0.1165512     0.1954892   -0.1533826 
   1.700000000     0.1884924   -0.2040335     0.0492761    0.0747765     0.0491260    0.0749245     0.1722545   -0.2180263 
   1.750000000     0.1144085   -0.2670541     0.0276329    0.0558858     0.0276472    0.0559057     0.0614680   -0.2867537 
   1.800000000    -0.0315369   -0.2957845     0.0518619    0.0844527     0.0518050    0.0845425    -0.0875246   -0.2797119 
   1.850000000    -0.1446143   -0.2013425     0.1373881    0.0581614     0.1376063    0.0578235    -0.1648539   -0.2205794 
   1.900000000    -0.2213129   -0.0834409     0.1550068   -0.0245349     0.1549467   -0.0244008    -0.2880431   -0.1038524 
   1.950000000    -0.2093706    0.0690206     0.1207483   -0.1042311     0.1210319   -0.1034669    -0.2802959    0.0448759 
   2.000000000    -0.1379433    0.1717681     0.0666299   -0.1562288     0.0672699   -0.1558300    -0.1922234    0.1245940 
   2.050000000    -0.0564483    0.2024484    -0.0394296   -0.1691084    -0.0392238   -0.1693934    -0.1206918    0.1853375 
   2.100000000     0.0394740    0.2321469    -0.1055237   -0.1019677    -0.1062120   -0.1022470    -0.0636562    0.2015728 
   2.150000000     0.1165221    0.2005354    -0.1145568   -0.0498717    -0.1146207   -0.0499430     0.0305687    0.2112605 
   2.200000000     0.1719561    0.1355761    -0.1257842   -0.0101627    -0.1262750   -0.0103368     0.1120123    0.1683421 
   2.250000000     0.1724687    0.0783257    -0.1153474    0.0525191    -0.1155107    0.0525169     0.1369555    0.0798561 
   2.300000000     0.1728687    0.0162868    -0.0806824    0.0983568    -0.0807246    0.0983919     0.1103157    0.0281545 
   2.350000000     0.1332683   -0.0167002    -0.0231855    0.1274959    -0.0232841    0.1274944     0.0629642   -0.0173440 
   2.400000000     0.0785181   -0.0224763     0.0379717    0.1341016     0.0377643    0.1343258     0.0260807    0.0020681 
   2.450000000     0.0696272    0.0021127     0.1013329    0.0843366     0.1010244    0.0846020     0.0253282    0.0253235 
   2.500000000     0.0670048    0.0269552     0.1198712    0.0305480     0.1196550    0.0307768     0.0223340    0.0161999 
   2.550000000     0.0876111    0.0258268     0.1147266   -0.0283763     0.1149137   -0.0281841     0.0178526    0.0222115 
   2.600000000     0.1132029    0.0373859     0.0872083   -0.0811662     0.0873988   -0.0812217     0.0329886    0.0453650 
   2.650000000     0.1310833    0.0157878     0.0296531   -0.1060353     0.0296287   -0.1060056     0.0519624    0.0324002 
   2.700000000     0.1478155   -0.0107527    -0.0190362   -0.0949973    -0.0188135   -0.0949611     0.0734783    0.0195852 
   2.750000000     0.1458289   -0.0463971    -0.0538457   -0.0683317    -0.0538359   -0.0683972     0.0773070   -0.0133946 
   2.800000000     0.1320691   -0.0718385    -0.0652376   -0.0337519    -0.0651551   -0.0337488     0.0590685   -0.0354822 
   2.850000000     0.1018030   -0.0944911    -0.0556745   -0.0085590    -0.0556716   -0.0086201     0.0421879   -0.0656109 
   2.900000000     0.0724988   -0.1050121    -0.0598531    0.0079485    -0.0598023    0.0079718     0.0008339   -0.0714491 
   2.950000000     0.0505893   -0.0952215    -0.0500310    0.0352646    -0.0499908    0.0352742    -0.0240705   -0.0530227 
   3.000000000     0.0377798   -0.1011387    -0.0323781    0.0468564    -0.0323884    0.0468991    -0.0280866   -0.0464600 
   3.050000000     0.0118794   -0.1078297    -0.0167973    0.0548317    -0.0169127    0.0547941    -0.0429703   -0.0508262 
   3.100000000    -0.0170417   -0.0928666     0.0070831    0.0528625     0.0070633    0.0527780    -0.0590749   -0.0512613 
   3.150000000    -0.0434790   -0.0783194     0.0247012    0.0472776     0.0246851    0.0473400    -0.0833827   -0.0489466 
   3.200000000    -0.0636624   -0.0452727     0.0384236    0.0343225     0.0384814    0.0344431    -0.1191650   -0.0202354 
   3.250000000    -0.0693032   -0.0043854     0.0583114    0.0288355     0.0584128    0.0288292    -0.1444709    0.0248605 
   3.300000000    -0.0595365    0.0244182     0.0743966   -0.0066955     0.0743814   -0.0067525    -0.1349078    0.0719640 
   3.350000000    -0.0500425    0.0589784     0.0619520   -0.0500357     0.0620174   -0.0500918    -0.1146898    0.1020497 
   3.400000000    -0.0251339    0.0873852     0.0196103   -0.0705947     0.0196910   -0.0706506    -0.0935140    0.1338386 
   3.450000000     0.0120263    0.1175854    -0.0158102   -0.0726269    -0.0157764   -0.0726481    -0.0573094    0.1536371 
   3.500000000     0.0595235    0.1402837    -0.0531475   -0.0451428    -0.0531815   -0.0451325    -0.0271224    0.1667206 
   3.550000000     0.1298534    0.1407559    -0.0637279   -0.0088233    -0.0636091   -0.0088870     0.0161726    0.1869486 
   3.600000000     0.1938917    0.0959309    -0.0474770    0.0290274    -0.0475426    0.0290717     0.0845984    0.1757032 
   3.650000000     0.2241747    0.0248198    -0.0238581    0.0351217    -0.0238379    0.0351627     0.1293637    0.1239498 
   3.700000000     0.2019195   -0.0439150    -0.0048445    0.0347069    -0.0049121    0.0347138     0.1366771    0.0631958 
   3.750000000     0.1699819   -0.0698680     0.0072140    0.0235207     0.0071808    0.0234526     0.1192279    0.0100362 
   3.800000000     0.1405808   -0.0772367     0.0119313    0.0174270     0.0119032    0.0174444     0.0783861   -0.0106900 
   3.850000000     0.1305881   -0.0857998     0.0170869    0.0127795     0.0169895    0.0127769     0.0512097   -0.0077365 
   3.900000000     0.1142459   -0.0938079     0.0238239    0.0059452     0.0236479    0.0059677     0.0426294    0.0064469 
   3.950000000     0.0934438   -0.1010993     0.0236238   -0.0045676     0.0235334   -0.0044848     0.0452691    0.0029709 
   4.000000000     0.0823557   -0.1033176     0.0129115   -0.0194024     0.0129211   -0.0192537     0.0363813   -0.0106308 
   4.050000000     0.0685964   -0.1047530    -0.0020468   -0.0197267    -0.0019931   -0.0196591     0.0190627   -0.0186164 
   4.100000000     0.0622755   -0.0949406    -0.0120034   -0.0104435    -0.0119179   -0.0104872     0.0028932   -0.0059468 
   4.150000000     0.0593168   -0.1000841    -0.0120210    0.0074360    -0.0120203    0.0074019     0.0011488    0.0061796 
   4.200000000     0.0486580   -0.1134216     0.0014584    0.0102505     0.0014116    0.0101956     0.0020554    0.0017452 
   4.250000000     0.0280551   -0.1171401     0.0166937    0.0036428     0.0166580    0.0035477    -0.0076674   -0.0025208 
   4.300000000     0.0055985   -0.1178160     0.0120936   -0.0160715     0.0121182   -0.0157809    -0.0235300   -0.0025649 
   4.350000000    -0.0244062   -0.0943614    -0.0040496   -0.0276205    -0.0038345   -0.0275591    -0.0522368    0.0106764 
   4.400000000    -0.0334858   -0.0560629    -0.0230741   -0.0114279    -0.0229723   -0.0114893    -0.0671374    0.0420716 
   4.450000000    -0.0320353   -0.0170922    -0.0287499   -0.0001212    -0.0285337   -0.0001981    -0.0750766    0.0779673 
   4.500000000     0.0005631    0.0191391    -0.0232603    0.0209992    -0.0232411    0.0207866    -0.0545816    0.1281151 
   4.550000000     0.0499563    0.0343711    -0.0028993    0.0259004    -0.0028649    0.0257512    -0.0065007    0.1534476 
   4.600000000     0.0887011    0.0227870     0.0080406    0.0251759     0.0078765    0.0250810     0.0417475    0.1587444 
   4.650000000     0.1241341   -0.0079160     0.0173466    0.0143694     0.0172341    0.0142626     0.0872234    0.1449254 
   4.700000000     0.1419326   -0.0367591     0.0213353    0.0016913     0.0210484    0.0017687     0.1246487    0.1107229 
   4.750000000     0.1539839   -0.0774000     0.0161467   -0.0033764     0.0161370   -0.0034584     0.1382654    0.0642533 
   4.800000000     0.1528785   -0.1149649     0.0106656   -0.0066077     0.0104432   -0.0064016     0.1379942    0.0300833 
   4.850000000     0.1365098   -0.1567882     0.0099211   -0.0081224     0.0099485   -0.0083031     0.1299140   -0.0009049 
   4.900000000     0.1130623   -0.1887408     0.0152775   -0.0133047     0.0150854   -0.0130899     0.1187527   -0.0310186 
   4.950000000     0.0735674   -0.2130332     0.0105108   -0.0258717     0.0106057   -0.0258208     0.0995855   -0.0560518 
   5.000000000     0.0298212   -0.2258171    -0.0113241   -0.0331641    -0.0111761   -0.0330720     0.0724124   -0.0842491 
   5.050000000    -0.0155924   -0.2095860    -0.0309104   -0.0207083    -0.0308425   -0.0206833     0.0237233   -0.0941774 
   5.100000000    -0.0425956   -0.1832328    -0.0387435    0.0027336    -0.0384610    0.0027861    -0.0233394   -0.0740069 
   5.150000000    -0.0490893   -0.1525877    -0.0292149    0.0262450    -0.0291341    0.0260649    -0.0421733   -0.0371759 
   5.200000000    -0.0505583   -0.1414104    -0.0063785    0.0383306    -0.0063882    0.0383253    -0.0448133   -0.0024186 
   5.250000000    -0.0461754   -0.1277496     0.0207755    0.0339988     0.0206316    0.0338119    -0.0230428    0.0181039 
   5.300000000    -0.0511010   -0.1274564     0.0349671    0.0058173     0.0347395    0.0059459    -0.0075527    0.0094622 
   5.350000000    -0.0653562   -0.1193351     0.0180575   -0.0177076     0.0181364   -0.0177318    -0.0231678   -0.0043212 
   5.400000000    -0.0783181   -0.0919045     0.0021165   -0.0130214     0.0020414   -0.0129922    -0.0504606    0.0122955 
   5.450000000    -0.0713112   -0.0668009    -0.0051842   -0.0045888    -0.0050771   -0.0044789    -0.0580720    0.0491094 
   5.500000000    -0.0563089   -0.0525995     0.0056664    0.0012472     0.0056093    0.0012313    -0.0390962    0.0894318 
   5.550000000    -0.0495776   -0.0468929     0.0109581   -0.0073291     0.0109067   -0.0072099    -0.0065201    0.0999892 
   5.600000000    -0.0424873   -0.0381601     0.0039672   -0.0201149     0.0040246   -0.0201092     0.0163193    0.0938053 
   5.650000000    -0.0304630   -0.0214882    -0.0168291   -0.0193816    -0.0168112   -0.0193635     0.0227093    0.0882322 
   5.700000000    -0.0073535   -0.0116723    -0.0290799   -0.0027901    -0.0289955   -0.0027892     0.0198320    0.0967213 
   5.750000000     0.0243267   -0.0120093    -0.0181006    0.0216050    -0.0182176    0.0215742     0.0464778    0.1273082 
   5.800000000     0.0613443   -0.0329397     0.0018296    0.0242462     0.0017818    0.0242986     0.0984539    0.1307670 
   5.850000000     0.0798269   -0.0681884     0.0175747    0.0115702     0.0175030    0.0116111     0.1485449    0.1003101 
   5.900000000     0.0842948   -0.1138179     0.0187567   -0.0021698     0.0186790   -0.0020465     0.1771767    0.0480751 
   5.950000000     0.0674588   -0.1556558     0.0080338   -0.0121759     0.0080468   -0.0121218     0.1714129   -0.0088391 
   6.000000000     0.0350530   -0.1830747    -0.0021867   -0.0065077    -0.0021902   -0.0064802     0.1416977   -0.0470576 
   6.050000000     0.0055217   -0.1949164    -0.0032570   -0.0034274    -0.0032128   -0.0034166     0.1113082   -0.0608017 
   6.100000000    -0.0281481   -0.1988301    -0.0000773   -0.0021908    -0.0000468   -0.0021755     0.0853651   -0.0682715 
   6.150000000    -0.0610535   -0.1892399     0.0002699   -0.0024103     0.0002699   -0.0023926     0.0678573   -0.0703784 
   6.200000000    -0.0838732   -0.1773451    -0.0021362   -0.0078376    -0.0021163   -0.0078078     0.0481876   -0.0771185 
   6.250000000    -0.0979757   -0.1579824    -0.0119582   -0.0071232    -0.0118552   -0.0071075     0.0192204   -0.0789136 
   6.300000000    -0.1080039   -0.1361698    -0.0113091    0.0059642    -0.0112191    0.0059053    -0.0100936   -0.0545375 
   6.350000000    -0.1098538   -0.1165476    -0.0059906    0.0110405    -0.0059794    0.0110055    -0.0203630   -0.0235205 
   6.400000000    -0.1050160   -0.0975113     0.0028925    0.0105220     0.0028240    0.0105525    -0.0063294    0.0058607 
   6.450000000    -0.0906605   -0.0929257     0.0075258    0.0063306     0.0074530    0.0062877     0.0170512    0.0173604 
   6.500000000    -0.0785011   -0.0975213     0.0086404    0.0024391     0.0085610    0.0024282     0.0365356    0.0144105 
   6.550000000    -0.0778583   -0.1094508     0.0074823   -0.0058940     0.0074752   -0.0057996     0.0563444   -0.0007188 
   6.600000000    -0.0830419   -0.1202243     0.0006237   -0.0060329     0.0006755   -0.0059992     0.0603723   -0.0214636 
   6.650000000    -0.0937922   -0.1264108    -0.0014855   -0.0045522    -0.0014826   -0.0045169     0.0504992   -0.0329818 
   6.700000000    -0.1062848   -0.1340548    -0.0013939   -0.0049023    -0.0013486   -0.0048703     0.0508552   -0.0370671 
   6.750000000    -0.1255050   -0.1316006    -0.0060029   -0.0019598    -0.0059104   -0.0019716     0.0489252   -0.0457680 
   6.800000000    -0.1360002   -0.1236014    -0.0066314    0.0007041    -0.0065809    0.0006611     0.0470839   -0.0589313 
   6.850000000    -0.1432795   -0.1172028    -0.0040706    0.0043699    -0.0041145    0.0043180     0.0445522   -0.0758187 
   6.900000000    -0.1566380   -0.1173409    -0.0010337    0.0063921    -0.0010282    0.0063553     0.0195709   -0.0925460 
   6.950000000    -0.1734851   -0.1064395     0.0004477    0.0064160     0.0003952    0.0063541    -0.0076238   -0.0902350 
   7.000000000    -0.1835995   -0.0893443     0.0037776    0.0049748     0.0037297    0.0049819    -0.0188802   -0.0749771 
   7.050000000    -0.1925471   -0.0802486     0.0068259    0.0022153     0.0067647    0.0022377    -0.0196280   -0.0757670 
   7.100000000    -0.1992517   -0.0709664     0.0054083   -0.0048201     0.0054090   -0.0047919    -0.0335492   -0.0756310 
   7.150000000    -0.2114516   -0.0526390     0.0019269   -0.0070366     0.0019084   -0.0070084    -0.0434152   -0.0689172 
   7.200000000    -0.2211045   -0.0381040    -0.0009672   -0.0060877    -0.0008848   -0.0060058    -0.0484074   -0.0732040 
   7.250000000    -0.2261269   -0.0214566    -0.0045957   -0.0034334    -0.0045152   -0.0034341    -0.0756318   -0.0716849 
   7.300000000    -0.2368700   -0.0027877    -0.0058812    0.0007146    -0.0058489    0.0006867    -0.0945209   -0.0502773 
   7.350000000    -0.2414643    0.0224364    -0.0043568    0.0016245    -0.0043083    0.0015700    -0.0980679   -0.0233557 
   7.400000000    -0.2457383    0.0526935    -0.0042954    0.0018763    -0.0042309    0.0018340    -0.0952420   -0.0014899 
   7.450000000    -0.2291264    0.0804135    -0.0045817    0.0050540    -0.0045768    0.0050159    -0.0826482    0.0113783 
   7.500000000    -0.2146633    0.0954820    -0.0028682    0.0071808    -0.0028996    0.0071155    -0.0810198    0.0177028 
   7.550000000    -0.2092784    0.1169525     0.0018373    0.0084951     0.0016981    0.0084495    -0.0833076    0.0316751 
   7.600000000    -0.1897129    0.1379786     0.0057862    0.0064205     0.0058126    0.0064285    -0.0717596    0.0542157 
   7.650000000    -0.1675521    0.1517620     0.0086718    0.0032687     0.0086151    0.0032905    -0.0428293    0.0636053 
   7.700000000    -0.1473114    0.1544829     0.0072338   -0.0047242     0.0072597   -0.0046340    -0.0274448    0.0485447 
   7.750000000    -0.1422478    0.1737247    -0.0016332   -0.0058258    -0.0016107   -0.0058502    -0.0220631    0.0541997 
   7.800000000    -0.1104248    0.1976544    -0.0019832    0.0019248    -0.0020558    0.0018672     0.0049392    0.0456822 
   7.850000000    -0.0731411    0.2015795    -0.0019789    0.0055706    -0.0019777    0.0055659     0.0038223    0.0110291 
   7.900000000    -0.0467256    0.1992239     0.0049682    0.0088796     0.0049477    0.0089253    -0.0255041    0.0011219 
   7.950000000    -0.0280827    0.2016092     0.0114189    0.0057111     0.0112576    0.0057205    -0.0321150    0.0197697 
   8.000000000     0.0075461    0.1996050     0.0124361   -0.0032980     0.0124485   -0.0032152    -0.0182139    0.0243440 
   8.050000000     0.0384968    0.1887366     0.0093106   -0.0080531     0.0092067   -0.0080375    -0.0203766    0.0124973 
   8.100000000     0.0665746    0.1690051     0.0016558   -0.0095163     0.0015505   -0.0095245    -0.0255373    0.0057865 
   8.150000000     0.0990002    0.1554329     0.0014774   -0.0051892     0.0014247   -0.0051729    -0.0352081   -0.0016181 
   8.200000000     0.1035792    0.1254542     0.0012114   -0.0029789     0.0012260   -0.0029927    -0.0483851    0.0049811 
   8.250000000     0.1227474    0.0966009     0.0034617   -0.0054863     0.0034171   -0.0054327    -0.0516234    0.0202722 
   8.300000000     0.1318786    0.0738669     0.0058241   -0.0079154     0.0058550   -0.0078687    -0.0389508    0.0241866 
   8.350000000     0.1344154    0.0343238     0.0004552   -0.0135489     0.0003709   -0.0136114    -0.0296277    0.0175372 
   8.400000000     0.1249140    0.0124600    -0.0065684   -0.0113457    -0.0066029   -0.0113591    -0.0326043    0.0089337 
   8.450000000     0.1150341   -0.0167790    -0.0119562   -0.0072762    -0.0119456   -0.0071432    -0.0490757    0.0025527 
   8.500000000     0.0954866   -0.0315280    -0.0115915    0.0001609    -0.0115680    0.0001641    -0.0674426   -0.0020289 
   8.550000000     0.0778575   -0.0342708    -0.0054415    0.0041378    -0.0053855    0.0041489    -0.0765448    0.0120571 
   8.600000000     0.0631966   -0.0438191    -0.0000485    0.0021866    -0.0000937    0.0023053    -0.0805140    0.0258357 
   8.650000000     0.0601202   -0.0372535     0.0008529   -0.0031403     0.0008269   -0.0032142    -0.0786243    0.0371590 
   8.700000000     0.0638563   -0.0296832    -0.0045723   -0.0052938    -0.0046728   -0.0052622    -0.0802063    0.0428443 
   8.750000000     0.0770957   -0.0309369    -0.0087953   -0.0026848    -0.0087964   -0.0026485    -0.0809209    0.0463479 
   8.800000000     0.0908591   -0.0385829    -0.0078158    0.0000452    -0.0077626    0.0000977    -0.0888903    0.0556125 
   8.850000000     0.1040304   -0.0708383    -0.0073775    0.0021614    -0.0072758    0.0022719    -0.0855831    0.0682312 
